T4838 369639:309 SEGGER J-Link V6.32i Log File (0001ms, 114154ms total)
T4838 369639:309 DLL Compiled: Jul 24 2018 15:19:55 (0001ms, 114154ms total)
T4838 369639:309 Logging started @ 2020-06-01 15:28 (0001ms, 114154ms total)
T4838 369639:310 JLINK_SetWarnOutHandler(...) (0000ms, 114154ms total)
T4838 369639:310 JLINK_OpenEx(...)
Firmware: J-Link V9 compiled Apr 20 2018 16:47:26
Hardware: V9.60
S/N: 69643061
Feature(s): RDI, GDB, FlashDL, FlashBP, JFlash
TELNET listener socket opened on port 19021Device "CORTEX-M4" selected.WEBSRV 
Starting webserver (0026ms, 114180ms total)
T4838 369639:310 WEBSRV Webserver running on local port 19080 (0026ms, 114180ms total)
T4838 369639:310   returns O.K. (0026ms, 114180ms total)
T4838 369639:336 JLINK_GetEmuCaps()  returns 0xB9FF7BBF (0000ms, 114180ms total)
T4838 369639:337 JLINK_TIF_GetAvailable(...) (0000ms, 114180ms total)
T4838 369639:337 JLINK_SetErrorOutHandler(...) (0000ms, 114180ms total)
T4838 369639:337 JLINK_ExecCommand("ProjectFile = "C:\Users\maheng\Desktop\TEST_Makefile\HDSC\User\JLinkSettings.ini"", ...). Device "CORTEX-M4" selected.  returns 0x00 (0014ms, 114194ms total)
T4838 369639:356 JLINK_ExecCommand("Device = HC32F460PETB", ...). Device "CORTEX-M4" selected.  returns 0x00 (0007ms, 114201ms total)
T4838 369639:363 JLINK_ExecCommand("DisableConnectionTimeout", ...).   returns 0x01 (0000ms, 114201ms total)
T4838 369639:363 JLINK_GetHardwareVersion()  returns 0x17700 (0000ms, 114201ms total)
T4838 369639:364 JLINK_GetDLLVersion()  returns 63209 (0000ms, 114202ms total)
T4838 369639:364 JLINK_GetFirmwareString(...) (0000ms, 114202ms total)
T4838 369639:382 JLINK_GetDLLVersion()  returns 63209 (0000ms, 114202ms total)
T4838 369639:382 JLINK_GetCompileDateTime() (0000ms, 114202ms total)
T4838 369639:389 JLINK_GetFirmwareString(...) (0000ms, 114202ms total)
T4838 369639:392 JLINK_GetHardwareVersion()  returns 0x17700 (0000ms, 114202ms total)
T4838 369639:406 JLINK_TIF_Select(JLINKARM_TIF_SWD)  returns 0x00 (0001ms, 114203ms total)
T4838 369639:407 JLINK_SetSpeed(5000) (0000ms, 114203ms total)
T4838 369639:407 JLINK_GetId() >0x10B TIF>Found SW-DP with ID 0x2BA01477 >0x0D TIF> >0x28 TIF> >0x0D TIF> >0x28 TIF> >0x0D TIF> >0x28 TIF> >0x0D TIF> >0x28 TIF> >0x0D TIF> >0x21 TIF> >0x0D TIF> >0x28 TIF>Scanning AP map to find all available APs >0x0D TIF> >0x28 TIF> >0x0D TIF> >0x21 TIF> >0x0D TIF> >0x21 TIF> >0x0D TIF> >0x28 TIF> >0x0D TIF> >0x21 TIF> >0x0D TIF> >0x21 TIF>AP[1]: Stopped AP scan as end of AP map has been reachedAP[0]: AHB-AP (IDR: 0x24770011)
Iterating through AP map to find AHB-AP to use >0x42 TIF> >0x28 TIF> >0x0D TIF> >0x28 TIF> >0x0D TIF> >0x21 TIF> >0x0D TIF> >0x21 TIF> >0x42 TIF> >0x28 TIF> >0x0D TIF> >0x28 TIF> >0x0D TIF> >0x28 TIF> >0x0D TIF> >0x21 TIF> >0x0D TIF> >0x21 TIF>AP[0]: Core foundAP[0]: AHB-AP ROM base: 0xE00FF000 >0x0D TIF> >0x28 TIF> >0x0D TIF> >0x28 TIF> >0x0D TIF> >0x28 TIF> >0x0D TIF> >0x21 TIF> >0x0D TIF> >0x21 TIF>CPUID register: 0x410FC241. Implementer code: 0x41 (ARM)Found Cortex-M4 r0p1, Little endian.
 -- Max. mem block: 0x00010F28 -- CPU_ReadMem(4 bytes @ 0xE000EDF0) -- CPU_WriteMem(4 bytes @ 0xE000EDF0) -- CPU_ReadMem(4 bytes @ 0xE0002000)FPUnit: 6 code (BP) slots and 2 literal slots -- CPU_ReadMem(4 bytes @ 0xE000EDFC) -- CPU_WriteMem(4 bytes @ 0xE000EDFC) -- CPU_ReadMem(4 bytes @ 0xE0001000) -- CPU_WriteMem(4 bytes @ 0xE0001000) -- CPU_ReadMem(4 bytes @ 0xE000ED88) -- CPU_WriteMem(4 bytes @ 0xE000ED88) -- CPU_ReadMem(4 bytes @ 0xE000ED88) -- CPU_WriteMem(4 bytes @ 0xE000ED88)CoreSight components:
ROMTbl[0] @ E00FF000 -- CPU_ReadMem(16 bytes @ 0xE00FF000) -- CPU_ReadMem(16 bytes @ 0xE000EFF0) -- CPU_ReadMem(16 bytes @ 0xE000EFE0)ROMTbl[0][0]: E000E000, CID: B105E00D, PID: 000BB00C SCS-M7 -- CPU_ReadMem(16 bytes @ 0xE0001FF0) -- CPU_ReadMem(16 bytes @ 0xE0001FE0)ROMTbl[0][1]: E0001000, CID: B105E00D, PID: 003BB002 DWT -- CPU_ReadMem(16 bytes @ 0xE0002FF0) -- CPU_ReadMem(16 bytes @ 0xE0002FE0)ROMTbl[0][2]: E0002000, CID: B105E00D, PID: 002BB003 FPB -- CPU_ReadMem(16 bytes @ 0xE0000FF0)
 -- CPU_ReadMem(16 bytes @ 0xE0000FE0)ROMTbl[0][3]: E0000000, CID: B105E00D, PID: 003BB001 ITM -- CPU_ReadMem(16 bytes @ 0xE00FF010) -- CPU_ReadMem(16 bytes @ 0xE0040FF0) -- CPU_ReadMem(16 bytes @ 0xE0040FE0)ROMTbl[0][4]: E0040000, CID: B105900D, PID: 000BB9A1 TPIU >0x0D TIF> >0x21 TIF>  returns 0x2BA01477 (0168ms, 114371ms total)
T4838 369639:575 JLINK_GetDLLVersion()  returns 63209 (0000ms, 114371ms total)
T4838 369639:575 JLINK_CORE_GetFound()  returns 0xE0000FF (0000ms, 114371ms total)
T4838 369639:575 JLINK_GetDebugInfo(0x100 = JLINKARM_ROM_TABLE_ADDR_INDEX) -- Value=0xE00FF000  returns 0x00 (0000ms, 114371ms total)
T4838 369639:579 JLINK_GetDebugInfo(0x100 = JLINKARM_ROM_TABLE_ADDR_INDEX) -- Value=0xE00FF000  returns 0x00 (0000ms, 114371ms total)
T4838 369639:579 JLINK_GetDebugInfo(0x101 = JLINKARM_DEBUG_INFO_ETM_ADDR_INDEX) -- Value=0x00000000  returns 0x00 (0000ms, 114371ms total)
T4838 369639:579 JLINK_ReadMemEx(0xE0041FF0, 0x0010 Bytes, ..., Flags = 0x02000004) -- CPU_ReadMem(16 bytes @ 0xE0041FF0) - Data: 00 00 00 00 00 00 00 00 00 00 00 00 00 00 00 00  returns 0x10 (0000ms, 114371ms total)
T4838 369639:579 JLINK_GetDebugInfo(0x102 = JLINKARM_DEBUG_INFO_MTB_ADDR_INDEX) -- Value=0x00000000  returns 0x00 (0000ms, 114371ms total)
T4838 369639:579 JLINK_GetDebugInfo(0x103 = JLINKARM_DEBUG_INFO_TPIU_ADDR_INDEX) -- Value=0xE0040000  returns 0x00 (0000ms, 114371ms total)
T4838 369639:579 JLINK_GetDebugInfo(0x104 = JLINKARM_DEBUG_INFO_ITM_ADDR_INDEX) -- Value=0xE0000000  returns 0x00 (0000ms, 114371ms total)
T4838 369639:579 JLINK_GetDebugInfo(0x105 = JLINKARM_DEBUG_INFO_DWT_ADDR_INDEX) -- Value=0xE0001000  returns 0x00 (0000ms, 114371ms total)
T4838 369639:579 JLINK_GetDebugInfo(0x106 = JLINKARM_DEBUG_INFO_FPB_ADDR_INDEX) -- Value=0xE0002000  returns 0x00 (0000ms, 114371ms total)
T4838 369639:579 JLINK_GetDebugInfo(0x107 = JLINKARM_DEBUG_INFO_NVIC_ADDR_INDEX) -- Value=0xE000E000  returns 0x00 (0000ms, 114371ms total)
T4838 369639:579 JLINK_GetDebugInfo(0x10C = JLINKARM_DEBUG_INFO_DBG_ADDR_INDEX) -- Value=0xE000EDF0  returns 0x00 (0001ms, 114372ms total)
T4838 369639:580 JLINK_GetDebugInfo(0x01 = Unknown) -- Value=0x00000001  returns 0x00 (0000ms, 114372ms total)
T4838 369639:580 JLINK_ReadMemU32(0xE000ED00, 0x0001 Items, ...) -- CPU_ReadMem(4 bytes @ 0xE000ED00) - Data: 41 C2 0F 41  returns 0x01 (0000ms, 114372ms total)
T4838 369639:580 JLINK_GetDebugInfo(0x10F = JLINKARM_DEBUG_INFO_HAS_CORTEX_M_SECURITY_EXT_INDEX) -- Value=0x00000000  returns 0x00 (0000ms, 114372ms total)
T4838 369639:580 JLINK_SetResetType(JLINKARM_CM3_RESET_TYPE_NORMAL)  returns JLINKARM_CM3_RESET_TYPE_NORMAL (0000ms, 114372ms total)
T4838 369639:580 JLINK_Reset() -- CPU is running -- CPU_WriteMem(4 bytes @ 0xE000EDF0) -- CPU is running -- CPU_WriteMem(4 bytes @ 0xE000EDFC)Reset: Halt core after reset via DEMCR.VC_CORERESET. >0x35 TIF>Reset: Reset device via AIRCR.SYSRESETREQ. -- CPU is running -- CPU_WriteMem(4 bytes @ 0xE000ED0C) >0x0D TIF> >0x28 TIF> -- CPU_ReadMem(4 bytes @ 0xE000EDF0) -- CPU_ReadMem(4 bytes @ 0xE000EDF0) -- CPU is running -- CPU_WriteMem(4 bytes @ 0xE000EDF0) -- CPU is running
 -- CPU_WriteMem(4 bytes @ 0xE000EDFC) -- CPU_ReadMem(4 bytes @ 0xE000EDF0) -- CPU_WriteMem(4 bytes @ 0xE0002000) -- CPU_ReadMem(4 bytes @ 0xE000EDFC) -- CPU_ReadMem(4 bytes @ 0xE0001000) (0069ms, 114441ms total)
T4838 369639:650 JLINK_Halt()  returns 0x00 (0000ms, 114441ms total)
T4838 369639:650 JLINK_ReadMemU32(0xE000EDF0, 0x0001 Items, ...) -- CPU_ReadMem(4 bytes @ 0xE000EDF0) - Data: 03 00 03 00  returns 0x01 (0000ms, 114441ms total)
T4838 369639:650 JLINK_WriteU32(0xE000EDF0, 0xA05F0003) -- CPU_WriteMem(4 bytes @ 0xE000EDF0)  returns 0x00 (0000ms, 114441ms total)
T4838 369639:650 JLINK_WriteU32(0xE000EDFC, 0x01000000) -- CPU_WriteMem(4 bytes @ 0xE000EDFC)  returns 0x00 (0001ms, 114442ms total)
T4838 369639:662 JLINK_GetHWStatus(...)  returns 0x00 (0001ms, 114443ms total)
T4838 369639:672 JLINK_GetNumBPUnits(Type = 0xFFFFFF00)  returns 0x06 (0000ms, 114443ms total)
T4838 369639:672 JLINK_GetNumBPUnits(Type = 0xF0)  returns 0x2000 (0000ms, 114443ms total)
T4838 369639:672 JLINK_GetNumWPUnits()  returns 0x04 (0000ms, 114443ms total)
T4838 369639:679 JLINK_GetSpeed()  returns 0xFA0 (0000ms, 114443ms total)
T4838 369639:686 JLINK_ReadMemU32(0xE000E004, 0x0001 Items, ...) -- CPU_ReadMem(4 bytes @ 0xE000E004) - Data: 04 00 00 00  returns 0x01 (0000ms, 114443ms total)
T4838 369639:686 JLINK_ReadMemU32(0xE000E004, 0x0001 Items, ...) -- CPU_ReadMem(4 bytes @ 0xE000E004) - Data: 04 00 00 00  returns 0x01 (0001ms, 114444ms total)
T4838 369639:687 JLINK_WriteMemEx(0xE0001000, 0x001C Bytes, ..., Flags = 0x02000004) - Data: 01 00 00 00 00 00 00 00 00 00 00 00 00 00 00 00 ... -- CPU_WriteMem(28 bytes @ 0xE0001000)  returns 0x1C (0000ms, 114444ms total)
T4838 369639:687 JLINK_Halt()  returns 0x00 (0000ms, 114444ms total)
T4838 369639:687 JLINK_IsHalted()  returns TRUE (0000ms, 114444ms total)
T4838 369639:690 JLINK_WriteMem(0x1FFF8000, 0x056C Bytes, ...) - Data: 00 BE 0A E0 0D 78 2D 06 68 40 08 24 40 00 00 D3 ... -- CPU_WriteMem(1388 bytes @ 0x1FFF8000)  returns 0x56C (0006ms, 114450ms total)
T4838 369639:696 JLINK_WriteReg(R0, 0x00000000)  returns 0x00 (0000ms, 114450ms total)
T4838 369639:696 JLINK_WriteReg(R1, 0x00B71B00)  returns 0x00 (0000ms, 114450ms total)
T4838 369639:696 JLINK_WriteReg(R2, 0x00000001)  returns 0x00 (0000ms, 114450ms total)
T4838 369639:696 JLINK_WriteReg(R3, 0x00000000)  returns 0x00 (0000ms, 114450ms total)
T4838 369639:696 JLINK_WriteReg(R4, 0x00000000)  returns 0x00 (0000ms, 114450ms total)
T4838 369639:696 JLINK_WriteReg(R5, 0x00000000)  returns 0x00 (0000ms, 114450ms total)
T4838 369639:696 JLINK_WriteReg(R6, 0x00000000)  returns 0x00 (0000ms, 114450ms total)
T4838 369639:696 JLINK_WriteReg(R7, 0x00000000)  returns 0x00 (0000ms, 114450ms total)
T4838 369639:696 JLINK_WriteReg(R8, 0x00000000)  returns 0x00 (0000ms, 114450ms total)
T4838 369639:696 JLINK_WriteReg(R9, 0x1FFF8568)  returns 0x00 (0000ms, 114450ms total)
T4838 369639:696 JLINK_WriteReg(R10, 0x00000000)  returns 0x00 (0000ms, 114450ms total)
T4838 369639:696 JLINK_WriteReg(R11, 0x00000000)  returns 0x00 (0000ms, 114450ms total)
T4838 369639:696 JLINK_WriteReg(R12, 0x00000000)  returns 0x00 (0000ms, 114450ms total)
T4838 369639:696 JLINK_WriteReg(R13 (SP), 0x1FFF9000)  returns 0x00 (0000ms, 114450ms total)
T4838 369639:696 JLINK_WriteReg(R14, 0x1FFF8001)  returns 0x00 (0000ms, 114450ms total)
T4838 369639:696 JLINK_WriteReg(R15 (PC), 0x1FFF8224)  returns 0x00 (0000ms, 114450ms total)
T4838 369639:696 JLINK_WriteReg(XPSR, 0x01000000)  returns 0x00 (0000ms, 114450ms total)
T4838 369639:696 JLINK_WriteReg(MSP, 0x1FFF9000)  returns 0x00 (0000ms, 114450ms total)
T4838 369639:696 JLINK_WriteReg(PSP, 0x1FFF9000)  returns 0x00 (0000ms, 114450ms total)
T4838 369639:696 JLINK_WriteReg(CFBP, 0x00000000)  returns 0x00 (0000ms, 114450ms total)
T4838 369639:696 JLINK_SetBPEx(Addr = 0x1FFF8000, Type = 0xFFFFFFF2)  returns 0x00000001 (0000ms, 114450ms total)
T4838 369639:696 JLINK_Go() -- CPU_WriteMem(4 bytes @ 0xE0002000) -- CPU_ReadMem(4 bytes @ 0xE0001000) -- CPU_WriteMem(4 bytes @ 0xE0002008) -- CPU_WriteMem(4 bytes @ 0xE000200C) -- CPU_WriteMem(4 bytes @ 0xE0002010) -- CPU_WriteMem(4 bytes @ 0xE0002014) -- CPU_WriteMem(4 bytes @ 0xE0002018) -- CPU_WriteMem(4 bytes @ 0xE000201C) -- CPU_WriteMem(4 bytes @ 0xE0001004) (0004ms, 114454ms total)
T4838 369639:700 JLINK_IsHalted()  returns TRUE (0002ms, 114456ms total)
T4838 369639:702 JLINK_ReadReg(R15 (PC))  returns 0x1FFF8000 (0000ms, 114454ms total)
T4838 369639:702 JLINK_ClrBPEx(BPHandle = 0x00000001)  returns 0x00 (0000ms, 114454ms total)
T4838 369639:702 JLINK_ReadReg(R0)  returns 0x00000000 (0000ms, 114454ms total)
T4838 369639:702 JLINK_WriteReg(R0, 0x00000000)  returns 0x00 (0000ms, 114454ms total)
T4838 369639:702 JLINK_WriteReg(R1, 0x00002000)  returns 0x00 (0000ms, 114454ms total)
T4838 369639:702 JLINK_WriteReg(R2, 0x000000FF)  returns 0x00 (0000ms, 114454ms total)
T4838 369639:702 JLINK_WriteReg(R3, 0x00000000)  returns 0x00 (0000ms, 114454ms total)
T4838 369639:702 JLINK_WriteReg(R4, 0x00000000)  returns 0x00 (0000ms, 114454ms total)
T4838 369639:702 JLINK_WriteReg(R5, 0x00000000)  returns 0x00 (0000ms, 114454ms total)
T4838 369639:702 JLINK_WriteReg(R6, 0x00000000)  returns 0x00 (0000ms, 114454ms total)
T4838 369639:702 JLINK_WriteReg(R7, 0x00000000)  returns 0x00 (0000ms, 114454ms total)
T4838 369639:702 JLINK_WriteReg(R8, 0x00000000)  returns 0x00 (0000ms, 114454ms total)
T4838 369639:702 JLINK_WriteReg(R9, 0x1FFF8568)  returns 0x00 (0000ms, 114454ms total)
T4838 369639:702 JLINK_WriteReg(R10, 0x00000000)  returns 0x00 (0000ms, 114454ms total)
T4838 369639:702 JLINK_WriteReg(R11, 0x00000000)  returns 0x00 (0000ms, 114454ms total)
T4838 369639:702 JLINK_WriteReg(R12, 0x00000000)  returns 0x00 (0000ms, 114454ms total)
T4838 369639:702 JLINK_WriteReg(R13 (SP), 0x1FFF9000)  returns 0x00 (0000ms, 114454ms total)
T4838 369639:702 JLINK_WriteReg(R14, 0x1FFF8001)  returns 0x00 (0000ms, 114454ms total)
T4838 369639:702 JLINK_WriteReg(R15 (PC), 0x1FFF8020)  returns 0x00 (0000ms, 114454ms total)
T4838 369639:702 JLINK_WriteReg(XPSR, 0x01000000)  returns 0x00 (0000ms, 114454ms total)
T4838 369639:702 JLINK_WriteReg(MSP, 0x1FFF9000)  returns 0x00 (0000ms, 114454ms total)
T4838 369639:702 JLINK_WriteReg(PSP, 0x1FFF9000)  returns 0x00 (0000ms, 114454ms total)
T4838 369639:702 JLINK_WriteReg(CFBP, 0x00000000)  returns 0x00 (0001ms, 114455ms total)
T4838 369639:703 JLINK_SetBPEx(Addr = 0x1FFF8000, Type = 0xFFFFFFF2)  returns 0x00000002 (0000ms, 114455ms total)
T4838 369639:703 JLINK_Go() -- CPU_WriteMem(4 bytes @ 0xE0002000) -- CPU_ReadMem(4 bytes @ 0xE0001000) (0001ms, 114456ms total)
T4838 369639:704 JLINK_IsHalted()  returns TRUE (0002ms, 114458ms total)
T4838 369639:706 JLINK_ReadReg(R15 (PC))  returns 0x1FFF8000 (0000ms, 114456ms total)
T4838 369639:706 JLINK_ClrBPEx(BPHandle = 0x00000002)  returns 0x00 (0000ms, 114456ms total)
T4838 369639:706 JLINK_ReadReg(R0)  returns 0x00000001 (0000ms, 114456ms total)
T4838 369639:706 JLINK_WriteReg(R0, 0x00000000)  returns 0x00 (0000ms, 114456ms total)
T4838 369639:706 JLINK_WriteReg(R1, 0x00002000)  returns 0x00 (0000ms, 114456ms total)
T4838 369639:706 JLINK_WriteReg(R2, 0x000000FF)  returns 0x00 (0000ms, 114456ms total)
T4838 369639:706 JLINK_WriteReg(R3, 0x00000000)  returns 0x00 (0000ms, 114456ms total)
T4838 369639:706 JLINK_WriteReg(R4, 0x00000000)  returns 0x00 (0000ms, 114456ms total)
T4838 369639:706 JLINK_WriteReg(R5, 0x00000000)  returns 0x00 (0000ms, 114456ms total)
T4838 369639:706 JLINK_WriteReg(R6, 0x00000000)  returns 0x00 (0000ms, 114456ms total)
T4838 369639:706 JLINK_WriteReg(R7, 0x00000000)  returns 0x00 (0000ms, 114456ms total)
T4838 369639:706 JLINK_WriteReg(R8, 0x00000000)  returns 0x00 (0000ms, 114456ms total)
T4838 369639:706 JLINK_WriteReg(R9, 0x1FFF8568)  returns 0x00 (0000ms, 114456ms total)
T4838 369639:706 JLINK_WriteReg(R10, 0x00000000)  returns 0x00 (0000ms, 114456ms total)
T4838 369639:706 JLINK_WriteReg(R11, 0x00000000)  returns 0x00 (0000ms, 114456ms total)
T4838 369639:706 JLINK_WriteReg(R12, 0x00000000)  returns 0x00 (0000ms, 114456ms total)
T4838 369639:706 JLINK_WriteReg(R13 (SP), 0x1FFF9000)  returns 0x00 (0000ms, 114456ms total)
T4838 369639:706 JLINK_WriteReg(R14, 0x1FFF8001)  returns 0x00 (0000ms, 114456ms total)
T4838 369639:706 JLINK_WriteReg(R15 (PC), 0x1FFF8194)  returns 0x00 (0000ms, 114456ms total)
T4838 369639:706 JLINK_WriteReg(XPSR, 0x01000000)  returns 0x00 (0000ms, 114456ms total)
T4838 369639:706 JLINK_WriteReg(MSP, 0x1FFF9000)  returns 0x00 (0000ms, 114456ms total)
T4838 369639:706 JLINK_WriteReg(PSP, 0x1FFF9000)  returns 0x00 (0000ms, 114456ms total)
T4838 369639:706 JLINK_WriteReg(CFBP, 0x00000000)  returns 0x00 (0000ms, 114456ms total)
T4838 369639:706 JLINK_SetBPEx(Addr = 0x1FFF8000, Type = 0xFFFFFFF2)  returns 0x00000003 (0000ms, 114456ms total)
T4838 369639:706 JLINK_Go() -- CPU_WriteMem(4 bytes @ 0xE0002000) -- CPU_ReadMem(4 bytes @ 0xE0001000) (0002ms, 114458ms total)
T4838 369639:708 JLINK_IsHalted()  returns FALSE (0000ms, 114458ms total)
T4838 369639:754 JLINK_IsHalted()  returns TRUE (0002ms, 114460ms total)
T4838 369639:756 JLINK_ReadReg(R15 (PC))  returns 0x1FFF8000 (0000ms, 114458ms total)
T4838 369639:756 JLINK_ClrBPEx(BPHandle = 0x00000003)  returns 0x00 (0000ms, 114458ms total)
T4838 369639:756 JLINK_ReadReg(R0)  returns 0x00000000 (0000ms, 114458ms total)
T4838 369639:756 JLINK_WriteReg(R0, 0x00002000)  returns 0x00 (0000ms, 114458ms total)
T4838 369639:756 JLINK_WriteReg(R1, 0x00002000)  returns 0x00 (0000ms, 114458ms total)
T4838 369639:756 JLINK_WriteReg(R2, 0x000000FF)  returns 0x00 (0000ms, 114458ms total)
T4838 369639:756 JLINK_WriteReg(R3, 0x00000000)  returns 0x00 (0000ms, 114458ms total)
T4838 369639:756 JLINK_WriteReg(R4, 0x00000000)  returns 0x00 (0000ms, 114458ms total)
T4838 369639:756 JLINK_WriteReg(R5, 0x00000000)  returns 0x00 (0000ms, 114458ms total)
T4838 369639:756 JLINK_WriteReg(R6, 0x00000000)  returns 0x00 (0000ms, 114458ms total)
T4838 369639:756 JLINK_WriteReg(R7, 0x00000000)  returns 0x00 (0000ms, 114458ms total)
T4838 369639:756 JLINK_WriteReg(R8, 0x00000000)  returns 0x00 (0000ms, 114458ms total)
T4838 369639:756 JLINK_WriteReg(R9, 0x1FFF8568)  returns 0x00 (0000ms, 114458ms total)
T4838 369639:756 JLINK_WriteReg(R10, 0x00000000)  returns 0x00 (0000ms, 114458ms total)
T4838 369639:756 JLINK_WriteReg(R11, 0x00000000)  returns 0x00 (0000ms, 114458ms total)
T4838 369639:756 JLINK_WriteReg(R12, 0x00000000)  returns 0x00 (0000ms, 114458ms total)
T4838 369639:756 JLINK_WriteReg(R13 (SP), 0x1FFF9000)  returns 0x00 (0000ms, 114458ms total)
T4838 369639:756 JLINK_WriteReg(R14, 0x1FFF8001)  returns 0x00 (0000ms, 114458ms total)
T4838 369639:756 JLINK_WriteReg(R15 (PC), 0x1FFF8020)  returns 0x00 (0000ms, 114458ms total)
T4838 369639:756 JLINK_WriteReg(XPSR, 0x01000000)  returns 0x00 (0000ms, 114458ms total)
T4838 369639:756 JLINK_WriteReg(MSP, 0x1FFF9000)  returns 0x00 (0000ms, 114458ms total)
T4838 369639:756 JLINK_WriteReg(PSP, 0x1FFF9000)  returns 0x00 (0000ms, 114458ms total)
T4838 369639:756 JLINK_WriteReg(CFBP, 0x00000000)  returns 0x00 (0000ms, 114458ms total)
T4838 369639:758 JLINK_SetBPEx(Addr = 0x1FFF8000, Type = 0xFFFFFFF2)  returns 0x00000004 (0000ms, 114460ms total)
T4838 369639:758 JLINK_Go() -- CPU_WriteMem(4 bytes @ 0xE0002000) -- CPU_ReadMem(4 bytes @ 0xE0001000) (0000ms, 114460ms total)
T4838 369639:758 JLINK_IsHalted()  returns TRUE (0003ms, 114463ms total)
T4838 369639:761 JLINK_ReadReg(R15 (PC))  returns 0x1FFF8000 (0000ms, 114460ms total)
T4838 369639:761 JLINK_ClrBPEx(BPHandle = 0x00000004)  returns 0x00 (0000ms, 114460ms total)
T4838 369639:761 JLINK_ReadReg(R0)  returns 0x00000001 (0000ms, 114460ms total)
T4838 369639:761 JLINK_WriteReg(R0, 0x00002000)  returns 0x00 (0000ms, 114460ms total)
T4838 369639:761 JLINK_WriteReg(R1, 0x00002000)  returns 0x00 (0000ms, 114460ms total)
T4838 369639:761 JLINK_WriteReg(R2, 0x000000FF)  returns 0x00 (0000ms, 114460ms total)
T4838 369639:761 JLINK_WriteReg(R3, 0x00000000)  returns 0x00 (0000ms, 114460ms total)
T4838 369639:761 JLINK_WriteReg(R4, 0x00000000)  returns 0x00 (0000ms, 114460ms total)
T4838 369639:761 JLINK_WriteReg(R5, 0x00000000)  returns 0x00 (0001ms, 114461ms total)
T4838 369639:762 JLINK_WriteReg(R6, 0x00000000)  returns 0x00 (0000ms, 114461ms total)
T4838 369639:762 JLINK_WriteReg(R7, 0x00000000)  returns 0x00 (0000ms, 114461ms total)
T4838 369639:762 JLINK_WriteReg(R8, 0x00000000)  returns 0x00 (0000ms, 114461ms total)
T4838 369639:762 JLINK_WriteReg(R9, 0x1FFF8568)  returns 0x00 (0000ms, 114461ms total)
T4838 369639:762 JLINK_WriteReg(R10, 0x00000000)  returns 0x00 (0000ms, 114461ms total)
T4838 369639:762 JLINK_WriteReg(R11, 0x00000000)  returns 0x00 (0000ms, 114461ms total)
T4838 369639:762 JLINK_WriteReg(R12, 0x00000000)  returns 0x00 (0000ms, 114461ms total)
T4838 369639:762 JLINK_WriteReg(R13 (SP), 0x1FFF9000)  returns 0x00 (0000ms, 114461ms total)
T4838 369639:762 JLINK_WriteReg(R14, 0x1FFF8001)  returns 0x00 (0000ms, 114461ms total)
T4838 369639:762 JLINK_WriteReg(R15 (PC), 0x1FFF8194)  returns 0x00 (0000ms, 114461ms total)
T4838 369639:762 JLINK_WriteReg(XPSR, 0x01000000)  returns 0x00 (0000ms, 114461ms total)
T4838 369639:762 JLINK_WriteReg(MSP, 0x1FFF9000)  returns 0x00 (0000ms, 114461ms total)
T4838 369639:762 JLINK_WriteReg(PSP, 0x1FFF9000)  returns 0x00 (0000ms, 114461ms total)
T4838 369639:762 JLINK_WriteReg(CFBP, 0x00000000)  returns 0x00 (0000ms, 114461ms total)
T4838 369639:762 JLINK_SetBPEx(Addr = 0x1FFF8000, Type = 0xFFFFFFF2)  returns 0x00000005 (0000ms, 114461ms total)
T4838 369639:762 JLINK_Go() -- CPU_WriteMem(4 bytes @ 0xE0002000) -- CPU_ReadMem(4 bytes @ 0xE0001000) (0001ms, 114462ms total)
T4838 369639:763 JLINK_IsHalted()  returns FALSE (0000ms, 114462ms total)
T4838 369639:764 JLINK_IsHalted()  returns FALSE (0000ms, 114462ms total)
T4838 369639:766 JLINK_IsHalted()  returns FALSE (0000ms, 114462ms total)
T4838 369639:769 JLINK_IsHalted()  returns FALSE (0000ms, 114462ms total)
T4838 369639:771 JLINK_IsHalted()  returns FALSE (0000ms, 114462ms total)
T4838 369639:773 JLINK_IsHalted()  returns FALSE (0000ms, 114462ms total)
T4838 369639:775 JLINK_IsHalted()  returns FALSE (0000ms, 114462ms total)
T4838 369639:777 JLINK_IsHalted()  returns FALSE (0000ms, 114462ms total)
T4838 369639:779 JLINK_IsHalted()  returns FALSE (0000ms, 114462ms total)
T4838 369639:781 JLINK_IsHalted()  returns FALSE (0000ms, 114462ms total)
T4838 369639:783 JLINK_IsHalted()  returns TRUE (0001ms, 114463ms total)
T4838 369639:784 JLINK_ReadReg(R15 (PC))  returns 0x1FFF8000 (0000ms, 114462ms total)
T4838 369639:784 JLINK_ClrBPEx(BPHandle = 0x00000005)  returns 0x00 (0000ms, 114462ms total)
T4838 369639:784 JLINK_ReadReg(R0)  returns 0x00000000 (0000ms, 114462ms total)
T4838 369639:785 JLINK_WriteReg(R0, 0x00004000)  returns 0x00 (0000ms, 114462ms total)
T4838 369639:785 JLINK_WriteReg(R1, 0x00002000)  returns 0x00 (0000ms, 114462ms total)
T4838 369639:785 JLINK_WriteReg(R2, 0x000000FF)  returns 0x00 (0000ms, 114462ms total)
T4838 369639:785 JLINK_WriteReg(R3, 0x00000000)  returns 0x00 (0000ms, 114462ms total)
T4838 369639:785 JLINK_WriteReg(R4, 0x00000000)  returns 0x00 (0000ms, 114462ms total)
T4838 369639:785 JLINK_WriteReg(R5, 0x00000000)  returns 0x00 (0000ms, 114462ms total)
T4838 369639:785 JLINK_WriteReg(R6, 0x00000000)  returns 0x00 (0000ms, 114462ms total)
T4838 369639:785 JLINK_WriteReg(R7, 0x00000000)  returns 0x00 (0000ms, 114462ms total)
T4838 369639:785 JLINK_WriteReg(R8, 0x00000000)  returns 0x00 (0000ms, 114462ms total)
T4838 369639:785 JLINK_WriteReg(R9, 0x1FFF8568)  returns 0x00 (0000ms, 114462ms total)
T4838 369639:785 JLINK_WriteReg(R10, 0x00000000)  returns 0x00 (0000ms, 114462ms total)
T4838 369639:785 JLINK_WriteReg(R11, 0x00000000)  returns 0x00 (0000ms, 114462ms total)
T4838 369639:785 JLINK_WriteReg(R12, 0x00000000)  returns 0x00 (0000ms, 114462ms total)
T4838 369639:785 JLINK_WriteReg(R13 (SP), 0x1FFF9000)  returns 0x00 (0000ms, 114462ms total)
T4838 369639:785 JLINK_WriteReg(R14, 0x1FFF8001)  returns 0x00 (0000ms, 114462ms total)
T4838 369639:785 JLINK_WriteReg(R15 (PC), 0x1FFF8020)  returns 0x00 (0000ms, 114462ms total)
T4838 369639:785 JLINK_WriteReg(XPSR, 0x01000000)  returns 0x00 (0000ms, 114462ms total)
T4838 369639:785 JLINK_WriteReg(MSP, 0x1FFF9000)  returns 0x00 (0000ms, 114462ms total)
T4838 369639:785 JLINK_WriteReg(PSP, 0x1FFF9000)  returns 0x00 (0000ms, 114462ms total)
T4838 369639:785 JLINK_WriteReg(CFBP, 0x00000000)  returns 0x00 (0000ms, 114462ms total)
T4838 369639:785 JLINK_SetBPEx(Addr = 0x1FFF8000, Type = 0xFFFFFFF2)  returns 0x00000006 (0000ms, 114462ms total)
T4838 369639:785 JLINK_Go() -- CPU_WriteMem(4 bytes @ 0xE0002000) -- CPU_ReadMem(4 bytes @ 0xE0001000) (0002ms, 114464ms total)
T4838 369639:787 JLINK_IsHalted()  returns TRUE (0002ms, 114466ms total)
T4838 369639:789 JLINK_ReadReg(R15 (PC))  returns 0x1FFF8000 (0000ms, 114464ms total)
T4838 369639:789 JLINK_ClrBPEx(BPHandle = 0x00000006)  returns 0x00 (0000ms, 114464ms total)
T4838 369639:789 JLINK_ReadReg(R0)  returns 0x00000001 (0000ms, 114464ms total)
T4838 369639:789 JLINK_WriteReg(R0, 0x00004000)  returns 0x00 (0000ms, 114464ms total)
T4838 369639:789 JLINK_WriteReg(R1, 0x00002000)  returns 0x00 (0000ms, 114464ms total)
T4838 369639:789 JLINK_WriteReg(R2, 0x000000FF)  returns 0x00 (0000ms, 114464ms total)
T4838 369639:789 JLINK_WriteReg(R3, 0x00000000)  returns 0x00 (0000ms, 114464ms total)
T4838 369639:789 JLINK_WriteReg(R4, 0x00000000)  returns 0x00 (0000ms, 114464ms total)
T4838 369639:789 JLINK_WriteReg(R5, 0x00000000)  returns 0x00 (0000ms, 114464ms total)
T4838 369639:789 JLINK_WriteReg(R6, 0x00000000)  returns 0x00 (0000ms, 114464ms total)
T4838 369639:789 JLINK_WriteReg(R7, 0x00000000)  returns 0x00 (0000ms, 114464ms total)
T4838 369639:789 JLINK_WriteReg(R8, 0x00000000)  returns 0x00 (0000ms, 114464ms total)
T4838 369639:789 JLINK_WriteReg(R9, 0x1FFF8568)  returns 0x00 (0000ms, 114464ms total)
T4838 369639:789 JLINK_WriteReg(R10, 0x00000000)  returns 0x00 (0000ms, 114464ms total)
T4838 369639:789 JLINK_WriteReg(R11, 0x00000000)  returns 0x00 (0000ms, 114464ms total)
T4838 369639:789 JLINK_WriteReg(R12, 0x00000000)  returns 0x00 (0000ms, 114464ms total)
T4838 369639:789 JLINK_WriteReg(R13 (SP), 0x1FFF9000)  returns 0x00 (0000ms, 114464ms total)
T4838 369639:789 JLINK_WriteReg(R14, 0x1FFF8001)  returns 0x00 (0000ms, 114464ms total)
T4838 369639:789 JLINK_WriteReg(R15 (PC), 0x1FFF8194)  returns 0x00 (0000ms, 114464ms total)
T4838 369639:789 JLINK_WriteReg(XPSR, 0x01000000)  returns 0x00 (0000ms, 114464ms total)
T4838 369639:789 JLINK_WriteReg(MSP, 0x1FFF9000)  returns 0x00 (0000ms, 114464ms total)
T4838 369639:789 JLINK_WriteReg(PSP, 0x1FFF9000)  returns 0x00 (0000ms, 114464ms total)
T4838 369639:789 JLINK_WriteReg(CFBP, 0x00000000)  returns 0x00 (0000ms, 114464ms total)
T4838 369639:789 JLINK_SetBPEx(Addr = 0x1FFF8000, Type = 0xFFFFFFF2)  returns 0x00000007 (0000ms, 114464ms total)
T4838 369639:789 JLINK_Go() -- CPU_WriteMem(4 bytes @ 0xE0002000) -- CPU_ReadMem(4 bytes @ 0xE0001000) (0002ms, 114466ms total)
T4838 369639:791 JLINK_IsHalted()  returns FALSE (0000ms, 114466ms total)
T4838 369639:793 JLINK_IsHalted()  returns FALSE (0000ms, 114466ms total)
T4838 369639:795 JLINK_IsHalted()  returns FALSE (0000ms, 114466ms total)
T4838 369639:797 JLINK_IsHalted()  returns FALSE (0000ms, 114466ms total)
T4838 369639:799 JLINK_IsHalted()  returns FALSE (0000ms, 114466ms total)
T4838 369639:801 JLINK_IsHalted()  returns FALSE (0000ms, 114466ms total)
T4838 369639:803 JLINK_IsHalted()  returns FALSE (0000ms, 114466ms total)
T4838 369639:805 JLINK_IsHalted()  returns FALSE (0000ms, 114466ms total)
T4838 369639:807 JLINK_IsHalted()  returns FALSE (0000ms, 114466ms total)
T4838 369639:809 JLINK_IsHalted()  returns TRUE (0002ms, 114468ms total)
T4838 369639:811 JLINK_ReadReg(R15 (PC))  returns 0x1FFF8000 (0000ms, 114466ms total)
T4838 369639:811 JLINK_ClrBPEx(BPHandle = 0x00000007)  returns 0x00 (0000ms, 114466ms total)
T4838 369639:811 JLINK_ReadReg(R0)  returns 0x00000000 (0000ms, 114466ms total)
T4838 369639:811 JLINK_WriteReg(R0, 0x00006000)  returns 0x00 (0000ms, 114466ms total)
T4838 369639:811 JLINK_WriteReg(R1, 0x00002000)  returns 0x00 (0000ms, 114466ms total)
T4838 369639:811 JLINK_WriteReg(R2, 0x000000FF)  returns 0x00 (0000ms, 114466ms total)
T4838 369639:811 JLINK_WriteReg(R3, 0x00000000)  returns 0x00 (0000ms, 114466ms total)
T4838 369639:811 JLINK_WriteReg(R4, 0x00000000)  returns 0x00 (0000ms, 114466ms total)
T4838 369639:811 JLINK_WriteReg(R5, 0x00000000)  returns 0x00 (0000ms, 114466ms total)
T4838 369639:811 JLINK_WriteReg(R6, 0x00000000)  returns 0x00 (0000ms, 114466ms total)
T4838 369639:811 JLINK_WriteReg(R7, 0x00000000)  returns 0x00 (0000ms, 114466ms total)
T4838 369639:811 JLINK_WriteReg(R8, 0x00000000)  returns 0x00 (0000ms, 114466ms total)
T4838 369639:811 JLINK_WriteReg(R9, 0x1FFF8568)  returns 0x00 (0000ms, 114466ms total)
T4838 369639:811 JLINK_WriteReg(R10, 0x00000000)  returns 0x00 (0000ms, 114466ms total)
T4838 369639:811 JLINK_WriteReg(R11, 0x00000000)  returns 0x00 (0000ms, 114466ms total)
T4838 369639:811 JLINK_WriteReg(R12, 0x00000000)  returns 0x00 (0000ms, 114466ms total)
T4838 369639:811 JLINK_WriteReg(R13 (SP), 0x1FFF9000)  returns 0x00 (0000ms, 114466ms total)
T4838 369639:811 JLINK_WriteReg(R14, 0x1FFF8001)  returns 0x00 (0000ms, 114466ms total)
T4838 369639:811 JLINK_WriteReg(R15 (PC), 0x1FFF8020)  returns 0x00 (0000ms, 114466ms total)
T4838 369639:811 JLINK_WriteReg(XPSR, 0x01000000)  returns 0x00 (0000ms, 114466ms total)
T4838 369639:811 JLINK_WriteReg(MSP, 0x1FFF9000)  returns 0x00 (0000ms, 114466ms total)
T4838 369639:811 JLINK_WriteReg(PSP, 0x1FFF9000)  returns 0x00 (0000ms, 114466ms total)
T4838 369639:811 JLINK_WriteReg(CFBP, 0x00000000)  returns 0x00 (0000ms, 114466ms total)
T4838 369639:811 JLINK_SetBPEx(Addr = 0x1FFF8000, Type = 0xFFFFFFF2)  returns 0x00000008 (0000ms, 114466ms total)
T4838 369639:811 JLINK_Go() -- CPU_WriteMem(4 bytes @ 0xE0002000) -- CPU_ReadMem(4 bytes @ 0xE0001000) (0002ms, 114468ms total)
T4838 369639:813 JLINK_IsHalted()  returns TRUE (0002ms, 114470ms total)
T4838 369639:815 JLINK_ReadReg(R15 (PC))  returns 0x1FFF8000 (0000ms, 114468ms total)
T4838 369639:815 JLINK_ClrBPEx(BPHandle = 0x00000008)  returns 0x00 (0000ms, 114468ms total)
T4838 369639:815 JLINK_ReadReg(R0)  returns 0x00000001 (0000ms, 114468ms total)
T4838 369639:815 JLINK_WriteReg(R0, 0x00006000)  returns 0x00 (0000ms, 114468ms total)
T4838 369639:815 JLINK_WriteReg(R1, 0x00002000)  returns 0x00 (0000ms, 114468ms total)
T4838 369639:815 JLINK_WriteReg(R2, 0x000000FF)  returns 0x00 (0000ms, 114468ms total)
T4838 369639:815 JLINK_WriteReg(R3, 0x00000000)  returns 0x00 (0000ms, 114468ms total)
T4838 369639:815 JLINK_WriteReg(R4, 0x00000000)  returns 0x00 (0000ms, 114468ms total)
T4838 369639:815 JLINK_WriteReg(R5, 0x00000000)  returns 0x00 (0000ms, 114468ms total)
T4838 369639:815 JLINK_WriteReg(R6, 0x00000000)  returns 0x00 (0000ms, 114468ms total)
T4838 369639:815 JLINK_WriteReg(R7, 0x00000000)  returns 0x00 (0000ms, 114468ms total)
T4838 369639:815 JLINK_WriteReg(R8, 0x00000000)  returns 0x00 (0000ms, 114468ms total)
T4838 369639:815 JLINK_WriteReg(R9, 0x1FFF8568)  returns 0x00 (0000ms, 114468ms total)
T4838 369639:815 JLINK_WriteReg(R10, 0x00000000)  returns 0x00 (0000ms, 114468ms total)
T4838 369639:815 JLINK_WriteReg(R11, 0x00000000)  returns 0x00 (0000ms, 114468ms total)
T4838 369639:815 JLINK_WriteReg(R12, 0x00000000)  returns 0x00 (0000ms, 114468ms total)
T4838 369639:815 JLINK_WriteReg(R13 (SP), 0x1FFF9000)  returns 0x00 (0000ms, 114468ms total)
T4838 369639:815 JLINK_WriteReg(R14, 0x1FFF8001)  returns 0x00 (0000ms, 114468ms total)
T4838 369639:815 JLINK_WriteReg(R15 (PC), 0x1FFF8194)  returns 0x00 (0000ms, 114468ms total)
T4838 369639:815 JLINK_WriteReg(XPSR, 0x01000000)  returns 0x00 (0000ms, 114468ms total)
T4838 369639:815 JLINK_WriteReg(MSP, 0x1FFF9000)  returns 0x00 (0000ms, 114468ms total)
T4838 369639:815 JLINK_WriteReg(PSP, 0x1FFF9000)  returns 0x00 (0000ms, 114468ms total)
T4838 369639:815 JLINK_WriteReg(CFBP, 0x00000000)  returns 0x00 (0000ms, 114468ms total)
T4838 369639:815 JLINK_SetBPEx(Addr = 0x1FFF8000, Type = 0xFFFFFFF2)  returns 0x00000009 (0000ms, 114468ms total)
T4838 369639:815 JLINK_Go() -- CPU_WriteMem(4 bytes @ 0xE0002000) -- CPU_ReadMem(4 bytes @ 0xE0001000) (0002ms, 114470ms total)
T4838 369639:817 JLINK_IsHalted()  returns FALSE (0000ms, 114470ms total)
T4838 369639:820 JLINK_IsHalted()  returns FALSE (0000ms, 114470ms total)
T4838 369639:822 JLINK_IsHalted()  returns FALSE (0000ms, 114470ms total)
T4838 369639:824 JLINK_IsHalted()  returns FALSE (0000ms, 114470ms total)
T4838 369639:828 JLINK_IsHalted()  returns FALSE (0000ms, 114470ms total)
T4838 369639:830 JLINK_IsHalted()  returns FALSE (0000ms, 114470ms total)
T4838 369639:832 JLINK_IsHalted()  returns FALSE (0000ms, 114470ms total)
T4838 369639:834 JLINK_IsHalted()  returns FALSE (0000ms, 114470ms total)
T4838 369639:836 JLINK_IsHalted()  returns TRUE (0002ms, 114472ms total)
T4838 369639:838 JLINK_ReadReg(R15 (PC))  returns 0x1FFF8000 (0000ms, 114470ms total)
T4838 369639:838 JLINK_ClrBPEx(BPHandle = 0x00000009)  returns 0x00 (0000ms, 114470ms total)
T4838 369639:838 JLINK_ReadReg(R0)  returns 0x00000000 (0000ms, 114470ms total)
T4838 369639:838 JLINK_WriteReg(R0, 0x00008000)  returns 0x00 (0000ms, 114470ms total)
T4838 369639:838 JLINK_WriteReg(R1, 0x00002000)  returns 0x00 (0000ms, 114470ms total)
T4838 369639:838 JLINK_WriteReg(R2, 0x000000FF)  returns 0x00 (0000ms, 114470ms total)
T4838 369639:838 JLINK_WriteReg(R3, 0x00000000)  returns 0x00 (0000ms, 114470ms total)
T4838 369639:838 JLINK_WriteReg(R4, 0x00000000)  returns 0x00 (0000ms, 114470ms total)
T4838 369639:838 JLINK_WriteReg(R5, 0x00000000)  returns 0x00 (0000ms, 114470ms total)
T4838 369639:838 JLINK_WriteReg(R6, 0x00000000)  returns 0x00 (0000ms, 114470ms total)
T4838 369639:838 JLINK_WriteReg(R7, 0x00000000)  returns 0x00 (0000ms, 114470ms total)
T4838 369639:838 JLINK_WriteReg(R8, 0x00000000)  returns 0x00 (0000ms, 114470ms total)
T4838 369639:838 JLINK_WriteReg(R9, 0x1FFF8568)  returns 0x00 (0000ms, 114470ms total)
T4838 369639:838 JLINK_WriteReg(R10, 0x00000000)  returns 0x00 (0000ms, 114470ms total)
T4838 369639:838 JLINK_WriteReg(R11, 0x00000000)  returns 0x00 (0000ms, 114470ms total)
T4838 369639:838 JLINK_WriteReg(R12, 0x00000000)  returns 0x00 (0000ms, 114470ms total)
T4838 369639:838 JLINK_WriteReg(R13 (SP), 0x1FFF9000)  returns 0x00 (0000ms, 114470ms total)
T4838 369639:838 JLINK_WriteReg(R14, 0x1FFF8001)  returns 0x00 (0000ms, 114470ms total)
T4838 369639:838 JLINK_WriteReg(R15 (PC), 0x1FFF8020)  returns 0x00 (0000ms, 114470ms total)
T4838 369639:838 JLINK_WriteReg(XPSR, 0x01000000)  returns 0x00 (0001ms, 114471ms total)
T4838 369639:839 JLINK_WriteReg(MSP, 0x1FFF9000)  returns 0x00 (0000ms, 114471ms total)
T4838 369639:839 JLINK_WriteReg(PSP, 0x1FFF9000)  returns 0x00 (0000ms, 114471ms total)
T4838 369639:839 JLINK_WriteReg(CFBP, 0x00000000)  returns 0x00 (0000ms, 114471ms total)
T4838 369639:839 JLINK_SetBPEx(Addr = 0x1FFF8000, Type = 0xFFFFFFF2)  returns 0x0000000A (0000ms, 114471ms total)
T4838 369639:839 JLINK_Go() -- CPU_WriteMem(4 bytes @ 0xE0002000) -- CPU_ReadMem(4 bytes @ 0xE0001000) (0001ms, 114472ms total)
T4838 369639:840 JLINK_IsHalted()  returns TRUE (0002ms, 114474ms total)
T4838 369639:842 JLINK_ReadReg(R15 (PC))  returns 0x1FFF8000 (0000ms, 114472ms total)
T4838 369639:842 JLINK_ClrBPEx(BPHandle = 0x0000000A)  returns 0x00 (0000ms, 114472ms total)
T4838 369639:842 JLINK_ReadReg(R0)  returns 0x00000001 (0000ms, 114472ms total)
T4838 369639:842 JLINK_WriteReg(R0, 0x00008000)  returns 0x00 (0000ms, 114472ms total)
T4838 369639:842 JLINK_WriteReg(R1, 0x00002000)  returns 0x00 (0000ms, 114472ms total)
T4838 369639:842 JLINK_WriteReg(R2, 0x000000FF)  returns 0x00 (0000ms, 114472ms total)
T4838 369639:842 JLINK_WriteReg(R3, 0x00000000)  returns 0x00 (0000ms, 114472ms total)
T4838 369639:842 JLINK_WriteReg(R4, 0x00000000)  returns 0x00 (0000ms, 114472ms total)
T4838 369639:842 JLINK_WriteReg(R5, 0x00000000)  returns 0x00 (0000ms, 114472ms total)
T4838 369639:842 JLINK_WriteReg(R6, 0x00000000)  returns 0x00 (0000ms, 114472ms total)
T4838 369639:842 JLINK_WriteReg(R7, 0x00000000)  returns 0x00 (0000ms, 114472ms total)
T4838 369639:842 JLINK_WriteReg(R8, 0x00000000)  returns 0x00 (0000ms, 114472ms total)
T4838 369639:842 JLINK_WriteReg(R9, 0x1FFF8568)  returns 0x00 (0001ms, 114473ms total)
T4838 369639:843 JLINK_WriteReg(R10, 0x00000000)  returns 0x00 (0000ms, 114473ms total)
T4838 369639:843 JLINK_WriteReg(R11, 0x00000000)  returns 0x00 (0000ms, 114473ms total)
T4838 369639:843 JLINK_WriteReg(R12, 0x00000000)  returns 0x00 (0000ms, 114473ms total)
T4838 369639:843 JLINK_WriteReg(R13 (SP), 0x1FFF9000)  returns 0x00 (0000ms, 114473ms total)
T4838 369639:843 JLINK_WriteReg(R14, 0x1FFF8001)  returns 0x00 (0000ms, 114473ms total)
T4838 369639:843 JLINK_WriteReg(R15 (PC), 0x1FFF8194)  returns 0x00 (0000ms, 114473ms total)
T4838 369639:843 JLINK_WriteReg(XPSR, 0x01000000)  returns 0x00 (0000ms, 114473ms total)
T4838 369639:843 JLINK_WriteReg(MSP, 0x1FFF9000)  returns 0x00 (0000ms, 114473ms total)
T4838 369639:843 JLINK_WriteReg(PSP, 0x1FFF9000)  returns 0x00 (0000ms, 114473ms total)
T4838 369639:843 JLINK_WriteReg(CFBP, 0x00000000)  returns 0x00 (0000ms, 114473ms total)
T4838 369639:843 JLINK_SetBPEx(Addr = 0x1FFF8000, Type = 0xFFFFFFF2)  returns 0x0000000B (0000ms, 114473ms total)
T4838 369639:843 JLINK_Go() -- CPU_WriteMem(4 bytes @ 0xE0002000) -- CPU_ReadMem(4 bytes @ 0xE0001000) (0001ms, 114474ms total)
T4838 369639:844 JLINK_IsHalted()  returns FALSE (0000ms, 114474ms total)
T4838 369639:846 JLINK_IsHalted()  returns FALSE (0000ms, 114474ms total)
T4838 369639:848 JLINK_IsHalted()  returns FALSE (0000ms, 114474ms total)
T4838 369639:849 JLINK_IsHalted()  returns FALSE (0000ms, 114474ms total)
T4838 369639:851 JLINK_IsHalted()  returns FALSE (0000ms, 114474ms total)
T4838 369639:853 JLINK_IsHalted()  returns FALSE (0000ms, 114474ms total)
T4838 369639:855 JLINK_IsHalted()  returns FALSE (0001ms, 114475ms total)
T4838 369639:857 JLINK_IsHalted()  returns FALSE (0000ms, 114474ms total)
T4838 369639:860 JLINK_IsHalted()  returns FALSE (0000ms, 114474ms total)
T4838 369639:862 JLINK_IsHalted()  returns TRUE (0002ms, 114476ms total)
T4838 369639:864 JLINK_ReadReg(R15 (PC))  returns 0x1FFF8000 (0000ms, 114474ms total)
T4838 369639:864 JLINK_ClrBPEx(BPHandle = 0x0000000B)  returns 0x00 (0000ms, 114474ms total)
T4838 369639:864 JLINK_ReadReg(R0)  returns 0x00000000 (0000ms, 114474ms total)
T4838 369639:864 JLINK_WriteReg(R0, 0x00000001)  returns 0x00 (0000ms, 114474ms total)
T4838 369639:864 JLINK_WriteReg(R1, 0x00002000)  returns 0x00 (0000ms, 114474ms total)
T4838 369639:864 JLINK_WriteReg(R2, 0x000000FF)  returns 0x00 (0000ms, 114474ms total)
T4838 369639:864 JLINK_WriteReg(R3, 0x00000000)  returns 0x00 (0000ms, 114474ms total)
T4838 369639:864 JLINK_WriteReg(R4, 0x00000000)  returns 0x00 (0000ms, 114474ms total)
T4838 369639:864 JLINK_WriteReg(R5, 0x00000000)  returns 0x00 (0000ms, 114474ms total)
T4838 369639:864 JLINK_WriteReg(R6, 0x00000000)  returns 0x00 (0000ms, 114474ms total)
T4838 369639:864 JLINK_WriteReg(R7, 0x00000000)  returns 0x00 (0000ms, 114474ms total)
T4838 369639:864 JLINK_WriteReg(R8, 0x00000000)  returns 0x00 (0000ms, 114474ms total)
T4838 369639:864 JLINK_WriteReg(R9, 0x1FFF8568)  returns 0x00 (0000ms, 114474ms total)
T4838 369639:864 JLINK_WriteReg(R10, 0x00000000)  returns 0x00 (0000ms, 114474ms total)
T4838 369639:864 JLINK_WriteReg(R11, 0x00000000)  returns 0x00 (0000ms, 114474ms total)
T4838 369639:864 JLINK_WriteReg(R12, 0x00000000)  returns 0x00 (0000ms, 114474ms total)
T4838 369639:864 JLINK_WriteReg(R13 (SP), 0x1FFF9000)  returns 0x00 (0000ms, 114474ms total)
T4838 369639:864 JLINK_WriteReg(R14, 0x1FFF8001)  returns 0x00 (0000ms, 114474ms total)
T4838 369639:864 JLINK_WriteReg(R15 (PC), 0x1FFF8384)  returns 0x00 (0000ms, 114474ms total)
T4838 369639:864 JLINK_WriteReg(XPSR, 0x01000000)  returns 0x00 (0000ms, 114474ms total)
T4838 369639:864 JLINK_WriteReg(MSP, 0x1FFF9000)  returns 0x00 (0000ms, 114474ms total)
T4838 369639:864 JLINK_WriteReg(PSP, 0x1FFF9000)  returns 0x00 (0000ms, 114474ms total)
T4838 369639:864 JLINK_WriteReg(CFBP, 0x00000000)  returns 0x00 (0000ms, 114474ms total)
T4838 369639:864 JLINK_SetBPEx(Addr = 0x1FFF8000, Type = 0xFFFFFFF2)  returns 0x0000000C (0000ms, 114474ms total)
T4838 369639:864 JLINK_Go() -- CPU_WriteMem(4 bytes @ 0xE0002000) -- CPU_ReadMem(4 bytes @ 0xE0001000) (0002ms, 114476ms total)
T4838 369639:866 JLINK_IsHalted()  returns TRUE (0002ms, 114478ms total)
T4838 369639:868 JLINK_ReadReg(R15 (PC))  returns 0x1FFF8000 (0000ms, 114476ms total)
T4838 369639:868 JLINK_ClrBPEx(BPHandle = 0x0000000C)  returns 0x00 (0000ms, 114476ms total)
T4838 369639:868 JLINK_ReadReg(R0)  returns 0x00000000 (0000ms, 114476ms total)
T4838 369639:927 JLINK_WriteMem(0x1FFF8000, 0x056C Bytes, ...) - Data: 00 BE 0A E0 0D 78 2D 06 68 40 08 24 40 00 00 D3 ... -- CPU_WriteMem(1388 bytes @ 0x1FFF8000)  returns 0x56C (0005ms, 114481ms total)
T4838 369639:932 JLINK_WriteReg(R0, 0x00000000)  returns 0x00 (0000ms, 114481ms total)
T4838 369639:932 JLINK_WriteReg(R1, 0x00B71B00)  returns 0x00 (0000ms, 114481ms total)
T4838 369639:932 JLINK_WriteReg(R2, 0x00000002)  returns 0x00 (0000ms, 114481ms total)
T4838 369639:932 JLINK_WriteReg(R3, 0x00000000)  returns 0x00 (0000ms, 114481ms total)
T4838 369639:932 JLINK_WriteReg(R4, 0x00000000)  returns 0x00 (0000ms, 114481ms total)
T4838 369639:932 JLINK_WriteReg(R5, 0x00000000)  returns 0x00 (0000ms, 114481ms total)
T4838 369639:932 JLINK_WriteReg(R6, 0x00000000)  returns 0x00 (0000ms, 114481ms total)
T4838 369639:932 JLINK_WriteReg(R7, 0x00000000)  returns 0x00 (0000ms, 114481ms total)
T4838 369639:932 JLINK_WriteReg(R8, 0x00000000)  returns 0x00 (0000ms, 114481ms total)
T4838 369639:932 JLINK_WriteReg(R9, 0x1FFF8568)  returns 0x00 (0000ms, 114481ms total)
T4838 369639:932 JLINK_WriteReg(R10, 0x00000000)  returns 0x00 (0000ms, 114481ms total)
T4838 369639:932 JLINK_WriteReg(R11, 0x00000000)  returns 0x00 (0000ms, 114481ms total)
T4838 369639:932 JLINK_WriteReg(R12, 0x00000000)  returns 0x00 (0000ms, 114481ms total)
T4838 369639:932 JLINK_WriteReg(R13 (SP), 0x1FFF9000)  returns 0x00 (0000ms, 114481ms total)
T4838 369639:932 JLINK_WriteReg(R14, 0x1FFF8001)  returns 0x00 (0000ms, 114481ms total)
T4838 369639:932 JLINK_WriteReg(R15 (PC), 0x1FFF8224)  returns 0x00 (0000ms, 114481ms total)
T4838 369639:932 JLINK_WriteReg(XPSR, 0x01000000)  returns 0x00 (0000ms, 114481ms total)
T4838 369639:932 JLINK_WriteReg(MSP, 0x1FFF9000)  returns 0x00 (0000ms, 114481ms total)
T4838 369639:932 JLINK_WriteReg(PSP, 0x1FFF9000)  returns 0x00 (0000ms, 114481ms total)
T4838 369639:932 JLINK_WriteReg(CFBP, 0x00000000)  returns 0x00 (0000ms, 114481ms total)
T4838 369639:932 JLINK_SetBPEx(Addr = 0x1FFF8000, Type = 0xFFFFFFF2)  returns 0x0000000D (0000ms, 114481ms total)
T4838 369639:932 JLINK_Go() -- CPU_WriteMem(4 bytes @ 0xE0002000) -- CPU_ReadMem(4 bytes @ 0xE0001000) (0002ms, 114483ms total)
T4838 369639:934 JLINK_IsHalted()  returns TRUE (0002ms, 114485ms total)
T4838 369639:936 JLINK_ReadReg(R15 (PC))  returns 0x1FFF8000 (0000ms, 114483ms total)
T4838 369639:936 JLINK_ClrBPEx(BPHandle = 0x0000000D)  returns 0x00 (0000ms, 114483ms total)
T4838 369639:936 JLINK_ReadReg(R0)  returns 0x00000000 (0000ms, 114483ms total)
T4838 369639:936 JLINK_WriteMem(0x1FFF856C, 0x0200 Bytes, ...) - Data: 48 CA FF 1F D9 04 00 00 71 52 00 00 2D 2C 00 00 ... -- CPU_WriteMem(512 bytes @ 0x1FFF856C)  returns 0x200 (0002ms, 114485ms total)
T4838 369639:938 JLINK_WriteReg(R0, 0x00000000)  returns 0x00 (0000ms, 114485ms total)
T4838 369639:938 JLINK_WriteReg(R1, 0x00000200)  returns 0x00 (0000ms, 114485ms total)
T4838 369639:938 JLINK_WriteReg(R2, 0x1FFF856C)  returns 0x00 (0000ms, 114485ms total)
T4838 369639:939 JLINK_WriteReg(R3, 0x00000000)  returns 0x00 (0000ms, 114485ms total)
T4838 369639:939 JLINK_WriteReg(R4, 0x00000000)  returns 0x00 (0000ms, 114485ms total)
T4838 369639:939 JLINK_WriteReg(R5, 0x00000000)  returns 0x00 (0000ms, 114485ms total)
T4838 369639:939 JLINK_WriteReg(R6, 0x00000000)  returns 0x00 (0000ms, 114485ms total)
T4838 369639:939 JLINK_WriteReg(R7, 0x00000000)  returns 0x00 (0000ms, 114485ms total)
T4838 369639:939 JLINK_WriteReg(R8, 0x00000000)  returns 0x00 (0000ms, 114485ms total)
T4838 369639:939 JLINK_WriteReg(R9, 0x1FFF8568)  returns 0x00 (0000ms, 114485ms total)
T4838 369639:939 JLINK_WriteReg(R10, 0x00000000)  returns 0x00 (0000ms, 114485ms total)
T4838 369639:939 JLINK_WriteReg(R11, 0x00000000)  returns 0x00 (0000ms, 114485ms total)
T4838 369639:939 JLINK_WriteReg(R12, 0x00000000)  returns 0x00 (0000ms, 114485ms total)
T4838 369639:939 JLINK_WriteReg(R13 (SP), 0x1FFF9000)  returns 0x00 (0000ms, 114485ms total)
T4838 369639:939 JLINK_WriteReg(R14, 0x1FFF8001)  returns 0x00 (0000ms, 114485ms total)
T4838 369639:939 JLINK_WriteReg(R15 (PC), 0x1FFF8288)  returns 0x00 (0000ms, 114485ms total)
T4838 369639:939 JLINK_WriteReg(XPSR, 0x01000000)  returns 0x00 (0000ms, 114485ms total)
T4838 369639:939 JLINK_WriteReg(MSP, 0x1FFF9000)  returns 0x00 (0000ms, 114485ms total)
T4838 369639:939 JLINK_WriteReg(PSP, 0x1FFF9000)  returns 0x00 (0000ms, 114485ms total)
T4838 369639:939 JLINK_WriteReg(CFBP, 0x00000000)  returns 0x00 (0000ms, 114485ms total)
T4838 369639:939 JLINK_SetBPEx(Addr = 0x1FFF8000, Type = 0xFFFFFFF2)  returns 0x0000000E (0000ms, 114485ms total)
T4838 369639:939 JLINK_Go() -- CPU_WriteMem(4 bytes @ 0xE0002000) -- CPU_ReadMem(4 bytes @ 0xE0001000) (0001ms, 114486ms total)
T4838 369639:940 JLINK_IsHalted()  returns FALSE (0001ms, 114487ms total)
T4838 369639:945 JLINK_IsHalted()  returns FALSE (0000ms, 114486ms total)
T4838 369639:947 JLINK_IsHalted()  returns FALSE (0000ms, 114486ms total)
T4838 369639:949 JLINK_IsHalted()  returns TRUE (0001ms, 114487ms total)
T4838 369639:950 JLINK_ReadReg(R15 (PC))  returns 0x1FFF8000 (0000ms, 114486ms total)
T4838 369639:950 JLINK_ClrBPEx(BPHandle = 0x0000000E)  returns 0x00 (0000ms, 114486ms total)
T4838 369639:950 JLINK_ReadReg(R0)  returns 0x00000000 (0000ms, 114486ms total)
T4838 369639:951 JLINK_WriteMem(0x1FFF856C, 0x0200 Bytes, ...) - Data: 35 36 00 00 4D 36 00 00 65 36 00 00 7D 36 00 00 ... -- CPU_WriteMem(512 bytes @ 0x1FFF856C)  returns 0x200 (0002ms, 114488ms total)
T4838 369639:953 JLINK_WriteReg(R0, 0x00000200)  returns 0x00 (0000ms, 114488ms total)
T4838 369639:953 JLINK_WriteReg(R1, 0x00000200)  returns 0x00 (0000ms, 114488ms total)
T4838 369639:953 JLINK_WriteReg(R2, 0x1FFF856C)  returns 0x00 (0000ms, 114488ms total)
T4838 369639:953 JLINK_WriteReg(R3, 0x00000000)  returns 0x00 (0000ms, 114488ms total)
T4838 369639:953 JLINK_WriteReg(R4, 0x00000000)  returns 0x00 (0000ms, 114488ms total)
T4838 369639:953 JLINK_WriteReg(R5, 0x00000000)  returns 0x00 (0000ms, 114488ms total)
T4838 369639:953 JLINK_WriteReg(R6, 0x00000000)  returns 0x00 (0000ms, 114488ms total)
T4838 369639:953 JLINK_WriteReg(R7, 0x00000000)  returns 0x00 (0000ms, 114488ms total)
T4838 369639:953 JLINK_WriteReg(R8, 0x00000000)  returns 0x00 (0000ms, 114488ms total)
T4838 369639:953 JLINK_WriteReg(R9, 0x1FFF8568)  returns 0x00 (0000ms, 114488ms total)
T4838 369639:953 JLINK_WriteReg(R10, 0x00000000)  returns 0x00 (0000ms, 114488ms total)
T4838 369639:953 JLINK_WriteReg(R11, 0x00000000)  returns 0x00 (0000ms, 114488ms total)
T4838 369639:953 JLINK_WriteReg(R12, 0x00000000)  returns 0x00 (0000ms, 114488ms total)
T4838 369639:953 JLINK_WriteReg(R13 (SP), 0x1FFF9000)  returns 0x00 (0000ms, 114488ms total)
T4838 369639:953 JLINK_WriteReg(R14, 0x1FFF8001)  returns 0x00 (0000ms, 114488ms total)
T4838 369639:953 JLINK_WriteReg(R15 (PC), 0x1FFF8288)  returns 0x00 (0000ms, 114488ms total)
T4838 369639:954 JLINK_WriteReg(XPSR, 0x01000000)  returns 0x00 (0000ms, 114489ms total)
T4838 369639:954 JLINK_WriteReg(MSP, 0x1FFF9000)  returns 0x00 (0000ms, 114489ms total)
T4838 369639:954 JLINK_WriteReg(PSP, 0x1FFF9000)  returns 0x00 (0000ms, 114489ms total)
T4838 369639:954 JLINK_WriteReg(CFBP, 0x00000000)  returns 0x00 (0000ms, 114489ms total)
T4838 369639:954 JLINK_SetBPEx(Addr = 0x1FFF8000, Type = 0xFFFFFFF2)  returns 0x0000000F (0000ms, 114489ms total)
T4838 369639:954 JLINK_Go() -- CPU_WriteMem(4 bytes @ 0xE0002000) -- CPU_ReadMem(4 bytes @ 0xE0001000) (0001ms, 114490ms total)
T4838 369639:955 JLINK_IsHalted()  returns FALSE (0001ms, 114491ms total)
T4838 369639:959 JLINK_IsHalted()  returns FALSE (0000ms, 114490ms total)
T4838 369639:961 JLINK_IsHalted()  returns FALSE (0000ms, 114490ms total)
T4838 369639:964 JLINK_IsHalted()  returns TRUE (0002ms, 114492ms total)
T4838 369639:966 JLINK_ReadReg(R15 (PC))  returns 0x1FFF8000 (0000ms, 114490ms total)
T4838 369639:966 JLINK_ClrBPEx(BPHandle = 0x0000000F)  returns 0x00 (0000ms, 114490ms total)
T4838 369639:966 JLINK_ReadReg(R0)  returns 0x00000000 (0000ms, 114490ms total)
T4838 369639:966 JLINK_WriteMem(0x1FFF856C, 0x0200 Bytes, ...) - Data: FF FF FF FF FF FF FF FF FF FF FF FF FF FF FF FF ... -- CPU_WriteMem(512 bytes @ 0x1FFF856C)  returns 0x200 (0002ms, 114492ms total)
T4838 369639:968 JLINK_WriteReg(R0, 0x00000400)  returns 0x00 (0000ms, 114492ms total)
T4838 369639:968 JLINK_WriteReg(R1, 0x00000200)  returns 0x00 (0000ms, 114492ms total)
T4838 369639:968 JLINK_WriteReg(R2, 0x1FFF856C)  returns 0x00 (0000ms, 114492ms total)
T4838 369639:968 JLINK_WriteReg(R3, 0x00000000)  returns 0x00 (0000ms, 114492ms total)
T4838 369639:968 JLINK_WriteReg(R4, 0x00000000)  returns 0x00 (0000ms, 114492ms total)
T4838 369639:968 JLINK_WriteReg(R5, 0x00000000)  returns 0x00 (0000ms, 114492ms total)
T4838 369639:968 JLINK_WriteReg(R6, 0x00000000)  returns 0x00 (0000ms, 114492ms total)
T4838 369639:968 JLINK_WriteReg(R7, 0x00000000)  returns 0x00 (0000ms, 114492ms total)
T4838 369639:968 JLINK_WriteReg(R8, 0x00000000)  returns 0x00 (0000ms, 114492ms total)
T4838 369639:969 JLINK_WriteReg(R9, 0x1FFF8568)  returns 0x00 (0000ms, 114493ms total)
T4838 369639:969 JLINK_WriteReg(R10, 0x00000000)  returns 0x00 (0000ms, 114493ms total)
T4838 369639:969 JLINK_WriteReg(R11, 0x00000000)  returns 0x00 (0000ms, 114493ms total)
T4838 369639:969 JLINK_WriteReg(R12, 0x00000000)  returns 0x00 (0000ms, 114493ms total)
T4838 369639:969 JLINK_WriteReg(R13 (SP), 0x1FFF9000)  returns 0x00 (0000ms, 114493ms total)
T4838 369639:969 JLINK_WriteReg(R14, 0x1FFF8001)  returns 0x00 (0000ms, 114493ms total)
T4838 369639:969 JLINK_WriteReg(R15 (PC), 0x1FFF8288)  returns 0x00 (0000ms, 114493ms total)
T4838 369639:969 JLINK_WriteReg(XPSR, 0x01000000)  returns 0x00 (0000ms, 114493ms total)
